
T4994 000:324 SEGGER J-Link V5.12e Log File (0001ms, 0280ms total)
T4994 000:324 DLL Compiled: Apr 29 2016 15:03:58 (0001ms, 0280ms total)
T4994 000:324 Logging started @ 2018-07-08 17:50 (0001ms, 0280ms total)
T4994 000:325 JLINK_SetWarnOutHandler(...) (0000ms, 0280ms total)
T4994 000:325 JLINK_OpenEx(...)
Firmware: J-Link V9 compiled Mar 29 2016 18:46:37
Hardware: V9.20
Feature(s): GDB, RDI, FlashBP, FlashDL, JFlash  returns O.K. (0279ms, 0559ms total)
T4994 000:604 JLINK_SetErrorOutHandler(...) (0000ms, 0559ms total)
T4994 000:604 JLINK_ExecCommand("ProjectFile = "C:\Users\Administrator\Desktop\STM32_LED_0623\Project\JLinkSettings.ini"", ...)  returns 0x00 (0000ms, 0559ms total)
T4994 000:607 JLINK_ExecCommand("Device = STM32F103C8", ...)Device "STM32F103C8" selected.  returns 0x00 (0006ms, 0565ms total)
T4994 000:613 JLINK_ExecCommand("DisableConnectionTimeout", ...)  returns 0x01 (0000ms, 0565ms total)
T4994 000:613 JLINK_GetHardwareVersion()  returns 0x16760 (0000ms, 0565ms total)
T4994 000:613 JLINK_GetDLLVersion()  returns 51205 (0000ms, 0565ms total)
T4994 000:613 JLINK_GetFirmwareString(...) (0000ms, 0565ms total)
T4994 000:659 JLINK_GetDLLVersion()  returns 51205 (0000ms, 0565ms total)
T4994 000:659 JLINK_GetCompileDateTime() (0000ms, 0565ms total)
T4994 000:662 JLINK_GetFirmwareString(...) (0000ms, 0565ms total)
T4994 000:664 JLINK_GetHardwareVersion()  returns 0x16760 (0000ms, 0565ms total)
T4994 000:672 JLINK_TIF_Select(JLINKARM_TIF_JTAG)  returns 0x00 (0003ms, 0568ms total)
T4994 000:675 JLINK_SetSpeed(5000) (0000ms, 0568ms total)
T4994 000:675 JLINK_GetIdData(...) >0x2F8 JTAG>TotalIRLen = 9, IRPrint = 0x0011 >0x30 JTAG> >0x210 JTAG> >0x40 JTAG> >0x40 JTAG> >0x40 JTAG> >0x30 JTAG> >0x40 JTAG> >0x40 JTAG> >0x40 JTAG> >0x40 JTAG> >0x40 JTAG> >0x40 JTAG> >0x40 JTAG> >0x40 JTAG> >0x40 JTAG> >0x40 JTAG> >0x40 JTAG> >0x40 JTAG> >0x40 JTAG> >0x40 JTAG> >0x40 JTAG> >0x40 JTAG> >0x40 JTAG> >0x40 JTAG> >0x40 JTAG> >0x40 JTAG> >0x2F8 JTAG>TotalIRLen = 9, IRPrint = 0x0011 >0x30 JTAG> >0x210 JTAG> >0x70 JTAG> >0x50 JTAG> >0x40 JTAG>
 >0x50 JTAG> >0x80 JTAG> >0x40 JTAG> >0x30 JTAG> >0x40 JTAG> >0x40 JTAG> >0x30 JTAG> >0x40 JTAG> >0x50 JTAG>Found Cortex-M3 r1p1, Little endian. -- CPU_ReadMem(4 bytes @ 0xE000EDF0) -- CPU_ReadMem(4 bytes @ 0xE0002000)FPUnit: 6 code (BP) slots and 2 literal slots -- CPU_ReadMem(4 bytes @ 0xE000EDFC) -- CPU_ReadMem(4 bytes @ 0xE0001000) -- CPU_WriteMem(4 bytes @ 0xE0001000) -- CPU_ReadMem(4 bytes @ 0xE000ED88) -- CPU_WriteMem(4 bytes @ 0xE000ED88) -- CPU_ReadMem(4 bytes @ 0xE000ED88)
 -- CPU_WriteMem(4 bytes @ 0xE000ED88)CoreSight components:ROMTbl 0 @ E00FF000 -- CPU_ReadMem(16 bytes @ 0xE00FF000) -- CPU_ReadMem(16 bytes @ 0xE000EFF0) -- CPU_ReadMem(16 bytes @ 0xE000EFE0)ROMTbl 0 [0]: FFF0F000, CID: B105E00D, PID: 001BB000 SCS -- CPU_ReadMem(16 bytes @ 0xE0001FF0) -- CPU_ReadMem(16 bytes @ 0xE0001FE0)ROMTbl 0 [1]: FFF02000, CID: B105E00D, PID: 001BB002 DWT -- CPU_ReadMem(16 bytes @ 0xE0002FF0) -- CPU_ReadMem(16 bytes @ 0xE0002FE0)
ROMTbl 0 [2]: FFF03000, CID: B105E00D, PID: 000BB003 FPB -- CPU_ReadMem(16 bytes @ 0xE0000FF0) -- CPU_ReadMem(16 bytes @ 0xE0000FE0)ROMTbl 0 [3]: FFF01000, CID: B105E00D, PID: 001BB001 ITM -- CPU_ReadMem(16 bytes @ 0xE00FF010) -- CPU_ReadMem(16 bytes @ 0xE0040FF0) -- CPU_ReadMem(16 bytes @ 0xE0040FE0)ROMTbl 0 [4]: FFF41000, CID: B105900D, PID: 001BB923 TPIU-Lite -- CPU_ReadMem(16 bytes @ 0xE0041FF0) -- CPU_ReadMem(16 bytes @ 0xE0041FE0)ROMTbl 0 [5]: FFF42000, CID: B105900D, PID: 101BB924 ETM-M3 ScanLen=9
 NumDevices=2 aId[0]=0x3BA00477 aIrRead[0]=0 aScanLen[0]=0 aScanRead[0]=0 (0168ms, 0736ms total)
T4994 000:843 JLINK_JTAG_GetDeviceID(DeviceIndex = 0)  returns 0x3BA00477 (0000ms, 0736ms total)
T4994 000:843 JLINK_JTAG_GetDeviceInfo(DeviceIndex = 0)  returns 0x00 (0000ms, 0736ms total)
T4994 000:843 JLINK_JTAG_GetDeviceID(DeviceIndex = 1)  returns 0x6414041 (0000ms, 0736ms total)
T4994 000:843 JLINK_JTAG_GetDeviceInfo(DeviceIndex = 1)  returns 0x00 (0000ms, 0736ms total)
T4994 000:843 JLINK_GetDLLVersion()  returns 51205 (0000ms, 0736ms total)
T4994 000:843 JLINK_CORE_GetFound()  returns 0x30000FF (0000ms, 0736ms total)
T4994 000:843 JLINK_GetDebugInfo(0x100) -- Value=0xE00FF003  returns 0x00 (0000ms, 0736ms total)
T4994 000:846 JLINK_GetDebugInfo(0x100) -- Value=0xE00FF003  returns 0x00 (0000ms, 0736ms total)
T4994 000:847 JLINK_GetDebugInfo(0x101) -- Value=0xE0041000  returns 0x00 (0000ms, 0736ms total)
T4994 000:847 JLINK_GetDebugInfo(0x102) -- Value=0x00000000  returns 0x00 (0000ms, 0736ms total)
T4994 000:847 JLINK_GetDebugInfo(0x103) -- Value=0xE0040000  returns 0x00 (0000ms, 0736ms total)
T4994 000:847 JLINK_GetDebugInfo(0x104) -- Value=0xE0000000  returns 0x00 (0000ms, 0736ms total)
T4994 000:847 JLINK_GetDebugInfo(0x105) -- Value=0xE0001000  returns 0x00 (0000ms, 0736ms total)
T4994 000:847 JLINK_GetDebugInfo(0x106) -- Value=0xE0002000  returns 0x00 (0000ms, 0736ms total)
T4994 000:847 JLINK_GetDebugInfo(0x107) -- Value=0xE000E000  returns 0x00 (0000ms, 0736ms total)
T4994 000:847 JLINK_GetDebugInfo(0x10C) -- Value=0xE000EDF0  returns 0x00 (0000ms, 0736ms total)
T4994 000:847 JLINK_ReadMemU32(0xE000ED00, 0x0001 Items, ...) -- CPU is running -- CPU_ReadMem(4 bytes @ 0xE000ED00) - Data: 31 C2 1F 41  returns 0x01 (0001ms, 0737ms total)
T4994 000:848 JLINK_SetResetType(JLINKARM_RESET_TYPE_NORMAL)  returns JLINKARM_RESET_TYPE_NORMAL (0000ms, 0737ms total)
T4994 000:848 JLINK_Reset() -- CPU is running -- CPU_WriteMem(4 bytes @ 0xE000EDF0) -- CPU is running -- CPU_WriteMem(4 bytes @ 0xE000EDFC) -- CPU is running -- CPU_WriteMem(4 bytes @ 0xE000ED0C) -- CPU is running -- CPU_ReadMem(4 bytes @ 0xE000EDF0) -- CPU is running -- CPU_ReadMem(4 bytes @ 0xE000EDF0) -- CPU is running -- CPU_WriteMem(4 bytes @ 0xE000EDF0) -- CPU is running -- CPU_WriteMem(4 bytes @ 0xE000EDFC) -- CPU is running -- CPU_ReadMem(4 bytes @ 0xE000EDF0) >0x80 JTAG> >0x40 JTAG> >0x30 JTAG>
 >0x40 JTAG> >0x50 JTAG> >0x40 JTAG> -- CPU_WriteMem(4 bytes @ 0xE000EDFC) -- CPU_WriteMem(4 bytes @ 0xE0001028) -- CPU_WriteMem(4 bytes @ 0xE0001038) -- CPU_WriteMem(4 bytes @ 0xE0001048) -- CPU_WriteMem(4 bytes @ 0xE0001058) -- CPU_WriteMem(4 bytes @ 0xE0002000) -- CPU_ReadMem(4 bytes @ 0xE000EDFC) -- CPU_ReadMem(4 bytes @ 0xE0001000) (0027ms, 0764ms total)
T4994 000:875 JLINK_Halt()  returns 0x00 (0000ms, 0764ms total)
T4994 000:875 JLINK_IsHalted()  returns TRUE (0000ms, 0764ms total)
T4994 000:875 JLINK_ReadMemU32(0xE000EDF0, 0x0001 Items, ...) -- CPU_ReadMem(4 bytes @ 0xE000EDF0) - Data: 03 00 03 00  returns 0x01 (0001ms, 0765ms total)
T4994 000:876 JLINK_WriteU32(0xE000EDF0, 0xA05F0003) -- CPU_WriteMem(4 bytes @ 0xE000EDF0)  returns 0x00 (0001ms, 0766ms total)
T4994 000:877 JLINK_WriteU32(0xE000EDFC, 0x01000000) -- CPU_WriteMem(4 bytes @ 0xE000EDFC)  returns 0x00 (0000ms, 0766ms total)
T4994 000:910 JLINK_GetHWStatus(...)  returns 0x00 (0001ms, 0767ms total)
T4994 000:918 JLINK_GetNumBPUnits(Type = 0xFFFFFF00)  returns 0x06 (0000ms, 0767ms total)
T4994 000:918 JLINK_GetNumBPUnits(Type = 0xF0)  returns 0x2000 (0000ms, 0767ms total)
T4994 000:918 JLINK_GetNumWPUnits()  returns 0x04 (0000ms, 0767ms total)
T4994 000:925 JLINK_GetSpeed()  returns 0x1388 (0000ms, 0767ms total)
T4994 000:930 JLINK_ReadMemU32(0xE000E004, 0x0001 Items, ...) -- CPU_ReadMem(4 bytes @ 0xE000E004) - Data: 01 00 00 00  returns 0x01 (0001ms, 0768ms total)
T4994 000:931 JLINK_ReadMemU32(0xE000E004, 0x0001 Items, ...) -- CPU_ReadMem(4 bytes @ 0xE000E004) - Data: 01 00 00 00  returns 0x01 (0001ms, 0769ms total)
T4994 000:932 JLINK_WriteMem(0xE0001000, 0x001C Bytes, ...) - Data: 01 00 00 00 00 00 00 00 00 00 00 00 00 00 00 00 ... -- CPU_WriteMem(28 bytes @ 0xE0001000)  returns 0x1C (0001ms, 0770ms total)
T4994 000:933 JLINK_ReadMem (0xE0001000, 0x001C Bytes, ...) -- CPU_ReadMem(28 bytes @ 0xE0001000) - Data: 01 00 00 40 00 00 00 00 00 00 00 00 00 00 00 00 ...  returns 0x00 (0001ms, 0771ms total)
T4994 000:934 JLINK_Halt()  returns 0x00 (0000ms, 0771ms total)
T4994 000:934 JLINK_IsHalted()  returns TRUE (0000ms, 0771ms total)
T4994 000:937 JLINK_WriteMem(0x20000000, 0x0164 Bytes, ...) - Data: 00 BE 0A E0 0D 78 2D 06 68 40 08 24 40 00 00 D3 ... -- CPU_WriteMem(356 bytes @ 0x20000000)  returns 0x164 (0003ms, 0774ms total)
T4994 000:940 JLINK_WriteReg(R0, 0x08000000)  returns 0x00 (0000ms, 0774ms total)
T4994 000:940 JLINK_WriteReg(R1, 0x00B71B00)  returns 0x00 (0000ms, 0774ms total)
T4994 000:940 JLINK_WriteReg(R2, 0x00000001)  returns 0x00 (0000ms, 0774ms total)
T4994 000:940 JLINK_WriteReg(R3, 0x00000000)  returns 0x00 (0000ms, 0774ms total)
T4994 000:940 JLINK_WriteReg(R4, 0x00000000)  returns 0x00 (0000ms, 0774ms total)
T4994 000:940 JLINK_WriteReg(R5, 0x00000000)  returns 0x00 (0000ms, 0774ms total)
T4994 000:940 JLINK_WriteReg(R6, 0x00000000)  returns 0x00 (0000ms, 0774ms total)
T4994 000:940 JLINK_WriteReg(R7, 0x00000000)  returns 0x00 (0000ms, 0774ms total)
T4994 000:940 JLINK_WriteReg(R8, 0x00000000)  returns 0x00 (0000ms, 0774ms total)
T4994 000:940 JLINK_WriteReg(R9, 0x20000160)  returns 0x00 (0000ms, 0774ms total)
T4994 000:940 JLINK_WriteReg(R10, 0x00000000)  returns 0x00 (0000ms, 0774ms total)
T4994 000:940 JLINK_WriteReg(R11, 0x00000000)  returns 0x00 (0001ms, 0775ms total)
T4994 000:941 JLINK_WriteReg(R12, 0x00000000)  returns 0x00 (0000ms, 0775ms total)
T4994 000:941 JLINK_WriteReg(R13 (SP), 0x20001000)  returns 0x00 (0000ms, 0775ms total)
T4994 000:941 JLINK_WriteReg(R14, 0x20000001)  returns 0x00 (0000ms, 0775ms total)
T4994 000:941 JLINK_WriteReg(R15 (PC), 0x20000038)  returns 0x00 (0000ms, 0775ms total)
T4994 000:941 JLINK_WriteReg(XPSR, 0x01000000)  returns 0x00 (0000ms, 0775ms total)
T4994 000:941 JLINK_WriteReg(MSP, 0x20001000)  returns 0x00 (0000ms, 0775ms total)
T4994 000:941 JLINK_WriteReg(PSP, 0x20001000)  returns 0x00 (0000ms, 0775ms total)
T4994 000:941 JLINK_WriteReg(CFBP, 0x00000000)  returns 0x00 (0000ms, 0775ms total)
T4994 000:941 JLINK_SetBPEx(Addr = 0x20000000, Type = 0xFFFFFFF2) -- CPU_ReadMem(2 bytes @ 0x20000000)  returns 0x00000001 (0001ms, 0776ms total)
T4994 000:942 JLINK_Go() -- CPU_WriteMem(2 bytes @ 0x20000000) -- CPU_ReadMem(4 bytes @ 0xE0001000) -- CPU_WriteMem(4 bytes @ 0xE0002008) -- CPU_WriteMem(4 bytes @ 0xE000200C) -- CPU_WriteMem(4 bytes @ 0xE0002010) -- CPU_WriteMem(4 bytes @ 0xE0002014) -- CPU_WriteMem(4 bytes @ 0xE0002018) -- CPU_WriteMem(4 bytes @ 0xE000201C) -- CPU_WriteMem(4 bytes @ 0xE0001004) (0005ms, 0781ms total)
T4994 000:947 JLINK_IsHalted() -- CPU_ReadMem(2 bytes @ 0x20000000)  returns TRUE (0003ms, 0784ms total)
T4994 000:950 JLINK_ReadReg(R15 (PC))  returns 0x20000000 (0000ms, 0781ms total)
T4994 000:950 JLINK_ClrBPEx(BPHandle = 0x00000001)  returns 0x00 (0000ms, 0781ms total)
T4994 000:950 JLINK_ReadReg(R0)  returns 0x00000000 (0000ms, 0781ms total)
T4994 000:959 JLINK_WriteReg(R0, 0x08000000)  returns 0x00 (0000ms, 0781ms total)
T4994 000:959 JLINK_WriteReg(R1, 0x00B71B00)  returns 0x00 (0000ms, 0781ms total)
T4994 000:959 JLINK_WriteReg(R2, 0x00000001)  returns 0x00 (0000ms, 0781ms total)
T4994 000:959 JLINK_WriteReg(R3, 0x00000000)  returns 0x00 (0000ms, 0781ms total)
T4994 000:959 JLINK_WriteReg(R4, 0x00000000)  returns 0x00 (0000ms, 0781ms total)
T4994 000:959 JLINK_WriteReg(R5, 0x00000000)  returns 0x00 (0000ms, 0781ms total)
T4994 000:959 JLINK_WriteReg(R6, 0x00000000)  returns 0x00 (0000ms, 0781ms total)
T4994 000:959 JLINK_WriteReg(R7, 0x00000000)  returns 0x00 (0000ms, 0781ms total)
T4994 000:959 JLINK_WriteReg(R8, 0x00000000)  returns 0x00 (0000ms, 0781ms total)
T4994 000:959 JLINK_WriteReg(R9, 0x20000160)  returns 0x00 (0000ms, 0781ms total)
T4994 000:959 JLINK_WriteReg(R10, 0x00000000)  returns 0x00 (0000ms, 0781ms total)
T4994 000:959 JLINK_WriteReg(R11, 0x00000000)  returns 0x00 (0000ms, 0781ms total)
T4994 000:959 JLINK_WriteReg(R12, 0x00000000)  returns 0x00 (0000ms, 0781ms total)
T4994 000:959 JLINK_WriteReg(R13 (SP), 0x20001000)  returns 0x00 (0000ms, 0781ms total)
T4994 000:959 JLINK_WriteReg(R14, 0x20000001)  returns 0x00 (0000ms, 0781ms total)
T4994 000:959 JLINK_WriteReg(R15 (PC), 0x2000007C)  returns 0x00 (0000ms, 0781ms total)
T4994 000:959 JLINK_WriteReg(XPSR, 0x01000000)  returns 0x00 (0000ms, 0781ms total)
T4994 000:959 JLINK_WriteReg(MSP, 0x20001000)  returns 0x00 (0000ms, 0781ms total)
T4994 000:959 JLINK_WriteReg(PSP, 0x20001000)  returns 0x00 (0000ms, 0781ms total)
T4994 000:959 JLINK_WriteReg(CFBP, 0x00000000)  returns 0x00 (0000ms, 0781ms total)
T4994 000:959 JLINK_SetBPEx(Addr = 0x20000000, Type = 0xFFFFFFF2)  returns 0x00000002 (0000ms, 0781ms total)
T4994 000:959 JLINK_Go() -- CPU_ReadMem(4 bytes @ 0xE0001000) (0002ms, 0783ms total)
T4994 000:961 JLINK_IsHalted()  returns FALSE (0001ms, 0784ms total)
T4994 000:987 JLINK_IsHalted() -- CPU_ReadMem(2 bytes @ 0x20000000)  returns TRUE (0002ms, 0785ms total)
T4994 000:989 JLINK_ReadReg(R15 (PC))  returns 0x20000000 (0000ms, 0783ms total)
T4994 000:989 JLINK_ClrBPEx(BPHandle = 0x00000002)  returns 0x00 (0000ms, 0783ms total)
T4994 000:989 JLINK_ReadReg(R0)  returns 0x00000000 (0000ms, 0783ms total)
T4994 001:041 JLINK_WriteReg(R0, 0x00000001)  returns 0x00 (0000ms, 0783ms total)
T4994 001:041 JLINK_WriteReg(R1, 0x00B71B00)  returns 0x00 (0000ms, 0783ms total)
T4994 001:041 JLINK_WriteReg(R2, 0x00000001)  returns 0x00 (0000ms, 0783ms total)
T4994 001:041 JLINK_WriteReg(R3, 0x00000000)  returns 0x00 (0000ms, 0783ms total)
T4994 001:041 JLINK_WriteReg(R4, 0x00000000)  returns 0x00 (0000ms, 0783ms total)
T4994 001:041 JLINK_WriteReg(R5, 0x00000000)  returns 0x00 (0000ms, 0783ms total)
T4994 001:041 JLINK_WriteReg(R6, 0x00000000)  returns 0x00 (0000ms, 0783ms total)
T4994 001:041 JLINK_WriteReg(R7, 0x00000000)  returns 0x00 (0000ms, 0783ms total)
T4994 001:041 JLINK_WriteReg(R8, 0x00000000)  returns 0x00 (0000ms, 0783ms total)
T4994 001:041 JLINK_WriteReg(R9, 0x20000160)  returns 0x00 (0000ms, 0783ms total)
T4994 001:041 JLINK_WriteReg(R10, 0x00000000)  returns 0x00 (0000ms, 0783ms total)
T4994 001:041 JLINK_WriteReg(R11, 0x00000000)  returns 0x00 (0000ms, 0783ms total)
T4994 001:041 JLINK_WriteReg(R12, 0x00000000)  returns 0x00 (0000ms, 0783ms total)
T4994 001:041 JLINK_WriteReg(R13 (SP), 0x20001000)  returns 0x00 (0000ms, 0783ms total)
T4994 001:041 JLINK_WriteReg(R14, 0x20000001)  returns 0x00 (0000ms, 0783ms total)
T4994 001:041 JLINK_WriteReg(R15 (PC), 0x2000006A)  returns 0x00 (0000ms, 0783ms total)
T4994 001:041 JLINK_WriteReg(XPSR, 0x01000000)  returns 0x00 (0000ms, 0783ms total)
T4994 001:041 JLINK_WriteReg(MSP, 0x20001000)  returns 0x00 (0000ms, 0783ms total)
T4994 001:041 JLINK_WriteReg(PSP, 0x20001000)  returns 0x00 (0000ms, 0783ms total)
T4994 001:041 JLINK_WriteReg(CFBP, 0x00000000)  returns 0x00 (0000ms, 0783ms total)
T4994 001:041 JLINK_SetBPEx(Addr = 0x20000000, Type = 0xFFFFFFF2)  returns 0x00000003 (0000ms, 0783ms total)
T4994 001:041 JLINK_Go() -- CPU_ReadMem(4 bytes @ 0xE0001000) (0002ms, 0785ms total)
T4994 001:043 JLINK_IsHalted() -- CPU_ReadMem(2 bytes @ 0x20000000)  returns TRUE (0003ms, 0788ms total)
T4994 001:046 JLINK_ReadReg(R15 (PC))  returns 0x20000000 (0000ms, 0785ms total)
T4994 001:046 JLINK_ClrBPEx(BPHandle = 0x00000003)  returns 0x00 (0000ms, 0785ms total)
T4994 001:046 JLINK_ReadReg(R0)  returns 0x00000000 (0000ms, 0785ms total)
T4994 001:050 JLINK_WriteMem(0x20000000, 0x0164 Bytes, ...) - Data: 00 BE 0A E0 0D 78 2D 06 68 40 08 24 40 00 00 D3 ... -- CPU_WriteMem(356 bytes @ 0x20000000)  returns 0x164 (0003ms, 0788ms total)
T4994 001:053 JLINK_WriteReg(R0, 0x08000000)  returns 0x00 (0000ms, 0788ms total)
T4994 001:053 JLINK_WriteReg(R1, 0x00B71B00)  returns 0x00 (0000ms, 0788ms total)
T4994 001:053 JLINK_WriteReg(R2, 0x00000002)  returns 0x00 (0000ms, 0788ms total)
T4994 001:053 JLINK_WriteReg(R3, 0x00000000)  returns 0x00 (0000ms, 0788ms total)
T4994 001:053 JLINK_WriteReg(R4, 0x00000000)  returns 0x00 (0000ms, 0788ms total)
T4994 001:053 JLINK_WriteReg(R5, 0x00000000)  returns 0x00 (0000ms, 0788ms total)
T4994 001:053 JLINK_WriteReg(R6, 0x00000000)  returns 0x00 (0000ms, 0788ms total)
T4994 001:053 JLINK_WriteReg(R7, 0x00000000)  returns 0x00 (0000ms, 0788ms total)
T4994 001:053 JLINK_WriteReg(R8, 0x00000000)  returns 0x00 (0000ms, 0788ms total)
T4994 001:053 JLINK_WriteReg(R9, 0x20000160)  returns 0x00 (0000ms, 0788ms total)
T4994 001:053 JLINK_WriteReg(R10, 0x00000000)  returns 0x00 (0000ms, 0788ms total)
T4994 001:053 JLINK_WriteReg(R11, 0x00000000)  returns 0x00 (0000ms, 0788ms total)
T4994 001:053 JLINK_WriteReg(R12, 0x00000000)  returns 0x00 (0000ms, 0788ms total)
T4994 001:053 JLINK_WriteReg(R13 (SP), 0x20001000)  returns 0x00 (0000ms, 0788ms total)
T4994 001:053 JLINK_WriteReg(R14, 0x20000001)  returns 0x00 (0000ms, 0788ms total)
T4994 001:053 JLINK_WriteReg(R15 (PC), 0x20000038)  returns 0x00 (0000ms, 0788ms total)
T4994 001:053 JLINK_WriteReg(XPSR, 0x01000000)  returns 0x00 (0000ms, 0788ms total)
T4994 001:053 JLINK_WriteReg(MSP, 0x20001000)  returns 0x00 (0000ms, 0788ms total)
T4994 001:053 JLINK_WriteReg(PSP, 0x20001000)  returns 0x00 (0000ms, 0788ms total)
T4994 001:053 JLINK_WriteReg(CFBP, 0x00000000)  returns 0x00 (0000ms, 0788ms total)
T4994 001:053 JLINK_SetBPEx(Addr = 0x20000000, Type = 0xFFFFFFF2) -- CPU_ReadMem(2 bytes @ 0x20000000)  returns 0x00000004 (0001ms, 0789ms total)
T4994 001:054 JLINK_Go() -- CPU_WriteMem(2 bytes @ 0x20000000) -- CPU_ReadMem(4 bytes @ 0xE0001000) (0002ms, 0791ms total)
T4994 001:056 JLINK_IsHalted() -- CPU_ReadMem(2 bytes @ 0x20000000)  returns TRUE (0003ms, 0794ms total)
T4994 001:059 JLINK_ReadReg(R15 (PC))  returns 0x20000000 (0000ms, 0791ms total)
T4994 001:059 JLINK_ClrBPEx(BPHandle = 0x00000004)  returns 0x00 (0000ms, 0791ms total)
T4994 001:059 JLINK_ReadReg(R0)  returns 0x00000000 (0000ms, 0791ms total)
T4994 001:059 JLINK_WriteMem(0x20000164, 0x0400 Bytes, ...) - Data: 98 09 00 20 01 01 00 08 89 36 00 08 8B 36 00 08 ... -- CPU_WriteMem(1024 bytes @ 0x20000164)  returns 0x400 (0006ms, 0797ms total)
T4994 001:065 JLINK_WriteReg(R0, 0x08000000)  returns 0x00 (0000ms, 0797ms total)
T4994 001:065 JLINK_WriteReg(R1, 0x00000400)  returns 0x00 (0000ms, 0797ms total)
T4994 001:065 JLINK_WriteReg(R2, 0x20000164)  returns 0x00 (0000ms, 0797ms total)
T4994 001:065 JLINK_WriteReg(R3, 0x00000000)  returns 0x00 (0000ms, 0797ms total)
T4994 001:065 JLINK_WriteReg(R4, 0x00000000)  returns 0x00 (0001ms, 0798ms total)
T4994 001:066 JLINK_WriteReg(R5, 0x00000000)  returns 0x00 (0000ms, 0798ms total)
T4994 001:066 JLINK_WriteReg(R6, 0x00000000)  returns 0x00 (0000ms, 0798ms total)
T4994 001:066 JLINK_WriteReg(R7, 0x00000000)  returns 0x00 (0000ms, 0798ms total)
T4994 001:066 JLINK_WriteReg(R8, 0x00000000)  returns 0x00 (0000ms, 0798ms total)
T4994 001:066 JLINK_WriteReg(R9, 0x20000160)  returns 0x00 (0000ms, 0798ms total)
T4994 001:066 JLINK_WriteReg(R10, 0x00000000)  returns 0x00 (0000ms, 0798ms total)
T4994 001:066 JLINK_WriteReg(R11, 0x00000000)  returns 0x00 (0000ms, 0798ms total)
T4994 001:066 JLINK_WriteReg(R12, 0x00000000)  returns 0x00 (0000ms, 0798ms total)
T4994 001:066 JLINK_WriteReg(R13 (SP), 0x20001000)  returns 0x00 (0000ms, 0798ms total)
T4994 001:066 JLINK_WriteReg(R14, 0x20000001)  returns 0x00 (0000ms, 0798ms total)
T4994 001:066 JLINK_WriteReg(R15 (PC), 0x200000F4)  returns 0x00 (0000ms, 0798ms total)
T4994 001:066 JLINK_WriteReg(XPSR, 0x01000000)  returns 0x00 (0000ms, 0798ms total)
T4994 001:066 JLINK_WriteReg(MSP, 0x20001000)  returns 0x00 (0000ms, 0798ms total)
T4994 001:066 JLINK_WriteReg(PSP, 0x20001000)  returns 0x00 (0000ms, 0798ms total)
T4994 001:066 JLINK_WriteReg(CFBP, 0x00000000)  returns 0x00 (0000ms, 0798ms total)
T4994 001:066 JLINK_SetBPEx(Addr = 0x20000000, Type = 0xFFFFFFF2)  returns 0x00000005 (0000ms, 0798ms total)
T4994 001:066 JLINK_Go() -- CPU_ReadMem(4 bytes @ 0xE0001000) (0003ms, 0801ms total)
T4994 001:069 JLINK_IsHalted()  returns FALSE (0000ms, 0801ms total)
T4994 001:091 JLINK_IsHalted()  returns FALSE (0000ms, 0801ms total)
T4994 001:092 JLINK_IsHalted()  returns FALSE (0000ms, 0801ms total)
T4994 001:093 JLINK_IsHalted()  returns FALSE (0000ms, 0801ms total)
T4994 001:094 JLINK_IsHalted()  returns FALSE (0000ms, 0801ms total)
T4994 001:095 JLINK_IsHalted()  returns FALSE (0000ms, 0801ms total)
T4994 001:096 JLINK_IsHalted()  returns FALSE (0000ms, 0801ms total)
T4994 001:097 JLINK_IsHalted()  returns FALSE (0000ms, 0801ms total)
T4994 001:098 JLINK_IsHalted()  returns FALSE (0000ms, 0801ms total)
T4994 001:099 JLINK_IsHalted()  returns FALSE (0000ms, 0801ms total)
T4994 001:100 JLINK_IsHalted() -- CPU_ReadMem(2 bytes @ 0x20000000)  returns TRUE (0002ms, 0803ms total)
T4994 001:102 JLINK_ReadReg(R15 (PC))  returns 0x20000000 (0000ms, 0801ms total)
T4994 001:102 JLINK_ClrBPEx(BPHandle = 0x00000005)  returns 0x00 (0000ms, 0801ms total)
T4994 001:102 JLINK_ReadReg(R0)  returns 0x00000000 (0000ms, 0801ms total)
T4994 001:103 JLINK_WriteMem(0x20000164, 0x0400 Bytes, ...) - Data: 09 20 04 F0 E1 FB 1E 21 0A 20 04 F0 DD FB 1E 21 ... -- CPU_WriteMem(1024 bytes @ 0x20000164)  returns 0x400 (0006ms, 0807ms total)
T4994 001:109 JLINK_WriteReg(R0, 0x08000400)  returns 0x00 (0000ms, 0807ms total)
T4994 001:109 JLINK_WriteReg(R1, 0x00000400)  returns 0x00 (0000ms, 0807ms total)
T4994 001:109 JLINK_WriteReg(R2, 0x20000164)  returns 0x00 (0000ms, 0807ms total)
T4994 001:109 JLINK_WriteReg(R3, 0x00000000)  returns 0x00 (0000ms, 0807ms total)
T4994 001:109 JLINK_WriteReg(R4, 0x00000000)  returns 0x00 (0001ms, 0808ms total)
T4994 001:110 JLINK_WriteReg(R5, 0x00000000)  returns 0x00 (0000ms, 0808ms total)
T4994 001:110 JLINK_WriteReg(R6, 0x00000000)  returns 0x00 (0000ms, 0808ms total)
T4994 001:110 JLINK_WriteReg(R7, 0x00000000)  returns 0x00 (0000ms, 0808ms total)
T4994 001:110 JLINK_WriteReg(R8, 0x00000000)  returns 0x00 (0000ms, 0808ms total)
T4994 001:110 JLINK_WriteReg(R9, 0x20000160)  returns 0x00 (0000ms, 0808ms total)
T4994 001:110 JLINK_WriteReg(R10, 0x00000000)  returns 0x00 (0000ms, 0808ms total)
T4994 001:110 JLINK_WriteReg(R11, 0x00000000)  returns 0x00 (0000ms, 0808ms total)
T4994 001:110 JLINK_WriteReg(R12, 0x00000000)  returns 0x00 (0000ms, 0808ms total)
T4994 001:110 JLINK_WriteReg(R13 (SP), 0x20001000)  returns 0x00 (0000ms, 0808ms total)
T4994 001:110 JLINK_WriteReg(R14, 0x20000001)  returns 0x00 (0000ms, 0808ms total)
T4994 001:110 JLINK_WriteReg(R15 (PC), 0x200000F4)  returns 0x00 (0000ms, 0808ms total)
T4994 001:110 JLINK_WriteReg(XPSR, 0x01000000)  returns 0x00 (0000ms, 0808ms total)
T4994 001:110 JLINK_WriteReg(MSP, 0x20001000)  returns 0x00 (0000ms, 0808ms total)
T4994 001:110 JLINK_WriteReg(PSP, 0x20001000)  returns 0x00 (0000ms, 0808ms total)
T4994 001:110 JLINK_WriteReg(CFBP, 0x00000000)  returns 0x00 (0000ms, 0808ms total)
T4994 001:110 JLINK_SetBPEx(Addr = 0x20000000, Type = 0xFFFFFFF2)  returns 0x00000006 (0000ms, 0808ms total)
T4994 001:110 JLINK_Go() -- CPU_ReadMem(4 bytes @ 0xE0001000) (0002ms, 0810ms total)
T4994 001:112 JLINK_IsHalted()  returns FALSE (0001ms, 0811ms total)
T4994 001:117 JLINK_IsHalted()  returns FALSE (0000ms, 0810ms total)
T4994 001:150 JLINK_IsHalted() -- CPU_ReadMem(2 bytes @ 0x20000000)  returns TRUE (0003ms, 0813ms total)
T4994 001:153 JLINK_ReadReg(R15 (PC))  returns 0x20000000 (0000ms, 0810ms total)
T4994 001:153 JLINK_ClrBPEx(BPHandle = 0x00000006)  returns 0x00 (0000ms, 0810ms total)
T4994 001:153 JLINK_ReadReg(R0)  returns 0x00000000 (0000ms, 0810ms total)
T4994 001:153 JLINK_WriteMem(0x20000164, 0x0400 Bytes, ...) - Data: 45 44 C1 C1 B6 C8 2C B2 A2 BF AA CA BC BC C6 CA ... -- CPU_WriteMem(1024 bytes @ 0x20000164)  returns 0x400 (0006ms, 0816ms total)
T4994 001:159 JLINK_WriteReg(R0, 0x08000800)  returns 0x00 (0000ms, 0816ms total)
T4994 001:159 JLINK_WriteReg(R1, 0x00000400)  returns 0x00 (0000ms, 0816ms total)
T4994 001:159 JLINK_WriteReg(R2, 0x20000164)  returns 0x00 (0000ms, 0816ms total)
T4994 001:159 JLINK_WriteReg(R3, 0x00000000)  returns 0x00 (0000ms, 0816ms total)
T4994 001:159 JLINK_WriteReg(R4, 0x00000000)  returns 0x00 (0001ms, 0817ms total)
T4994 001:160 JLINK_WriteReg(R5, 0x00000000)  returns 0x00 (0000ms, 0817ms total)
T4994 001:160 JLINK_WriteReg(R6, 0x00000000)  returns 0x00 (0000ms, 0817ms total)
T4994 001:160 JLINK_WriteReg(R7, 0x00000000)  returns 0x00 (0000ms, 0817ms total)
T4994 001:160 JLINK_WriteReg(R8, 0x00000000)  returns 0x00 (0000ms, 0817ms total)
T4994 001:160 JLINK_WriteReg(R9, 0x20000160)  returns 0x00 (0000ms, 0817ms total)
T4994 001:160 JLINK_WriteReg(R10, 0x00000000)  returns 0x00 (0000ms, 0817ms total)
T4994 001:160 JLINK_WriteReg(R11, 0x00000000)  returns 0x00 (0000ms, 0817ms total)
T4994 001:160 JLINK_WriteReg(R12, 0x00000000)  returns 0x00 (0000ms, 0817ms total)
T4994 001:160 JLINK_WriteReg(R13 (SP), 0x20001000)  returns 0x00 (0000ms, 0817ms total)
T4994 001:160 JLINK_WriteReg(R14, 0x20000001)  returns 0x00 (0000ms, 0817ms total)
T4994 001:160 JLINK_WriteReg(R15 (PC), 0x200000F4)  returns 0x00 (0000ms, 0817ms total)
T4994 001:160 JLINK_WriteReg(XPSR, 0x01000000)  returns 0x00 (0000ms, 0817ms total)
T4994 001:160 JLINK_WriteReg(MSP, 0x20001000)  returns 0x00 (0000ms, 0817ms total)
T4994 001:160 JLINK_WriteReg(PSP, 0x20001000)  returns 0x00 (0000ms, 0817ms total)
T4994 001:160 JLINK_WriteReg(CFBP, 0x00000000)  returns 0x00 (0000ms, 0817ms total)
T4994 001:160 JLINK_SetBPEx(Addr = 0x20000000, Type = 0xFFFFFFF2)  returns 0x00000007 (0000ms, 0817ms total)
T4994 001:160 JLINK_Go() -- CPU_ReadMem(4 bytes @ 0xE0001000) (0003ms, 0820ms total)
T4994 001:163 JLINK_IsHalted()  returns FALSE (0001ms, 0821ms total)
T4994 001:165 JLINK_IsHalted()  returns FALSE (0000ms, 0820ms total)
T4994 001:166 JLINK_IsHalted()  returns FALSE (0000ms, 0820ms total)
T4994 001:170 JLINK_IsHalted()  returns FALSE (0000ms, 0820ms total)
T4994 001:171 JLINK_IsHalted()  returns FALSE (0000ms, 0820ms total)
T4994 001:172 JLINK_IsHalted()  returns FALSE (0000ms, 0820ms total)
T4994 001:173 JLINK_IsHalted()  returns FALSE (0000ms, 0820ms total)
T4994 001:174 JLINK_IsHalted()  returns FALSE (0000ms, 0820ms total)
T4994 001:175 JLINK_IsHalted()  returns FALSE (0000ms, 0820ms total)
T4994 001:176 JLINK_IsHalted()  returns FALSE (0000ms, 0820ms total)
T4994 001:177 JLINK_IsHalted()  returns FALSE (0000ms, 0820ms total)
T4994 001:178 JLINK_IsHalted()  returns FALSE (0000ms, 0820ms total)
T4994 001:183 JLINK_IsHalted()  returns FALSE (0000ms, 0820ms total)
T4994 001:184 JLINK_IsHalted()  returns FALSE (0001ms, 0821ms total)
T4994 001:186 JLINK_IsHalted()  returns FALSE (0000ms, 0820ms total)
T4994 001:188 JLINK_IsHalted()  returns FALSE (0000ms, 0820ms total)
T4994 001:190 JLINK_IsHalted()  returns FALSE (0001ms, 0821ms total)
T4994 001:192 JLINK_IsHalted()  returns FALSE (0001ms, 0821ms total)
T4994 001:194 JLINK_IsHalted() -- CPU_ReadMem(2 bytes @ 0x20000000)  returns TRUE (0003ms, 0823ms total)
T4994 001:197 JLINK_ReadReg(R15 (PC))  returns 0x20000000 (0000ms, 0820ms total)
T4994 001:197 JLINK_ClrBPEx(BPHandle = 0x00000007)  returns 0x00 (0000ms, 0820ms total)
T4994 001:197 JLINK_ReadReg(R0)  returns 0x00000000 (0000ms, 0820ms total)
T4994 001:217 JLINK_WriteMem(0x20000164, 0x0400 Bytes, ...) - Data: BB BB D6 C1 B8 D0 D3 A6 CA B1 BC E4 B6 CE 31 A1 ... -- CPU_WriteMem(1024 bytes @ 0x20000164)  returns 0x400 (0006ms, 0826ms total)
T4994 001:223 JLINK_WriteReg(R0, 0x08000C00)  returns 0x00 (0000ms, 0826ms total)
T4994 001:223 JLINK_WriteReg(R1, 0x00000400)  returns 0x00 (0000ms, 0826ms total)
T4994 001:223 JLINK_WriteReg(R2, 0x20000164)  returns 0x00 (0000ms, 0826ms total)
T4994 001:223 JLINK_WriteReg(R3, 0x00000000)  returns 0x00 (0000ms, 0826ms total)
T4994 001:223 JLINK_WriteReg(R4, 0x00000000)  returns 0x00 (0000ms, 0826ms total)
T4994 001:223 JLINK_WriteReg(R5, 0x00000000)  returns 0x00 (0000ms, 0826ms total)
T4994 001:223 JLINK_WriteReg(R6, 0x00000000)  returns 0x00 (0000ms, 0826ms total)
T4994 001:223 JLINK_WriteReg(R7, 0x00000000)  returns 0x00 (0000ms, 0826ms total)
T4994 001:223 JLINK_WriteReg(R8, 0x00000000)  returns 0x00 (0000ms, 0826ms total)
T4994 001:223 JLINK_WriteReg(R9, 0x20000160)  returns 0x00 (0000ms, 0826ms total)
T4994 001:223 JLINK_WriteReg(R10, 0x00000000)  returns 0x00 (0000ms, 0826ms total)
T4994 001:223 JLINK_WriteReg(R11, 0x00000000)  returns 0x00 (0000ms, 0826ms total)
T4994 001:223 JLINK_WriteReg(R12, 0x00000000)  returns 0x00 (0000ms, 0826ms total)
T4994 001:223 JLINK_WriteReg(R13 (SP), 0x20001000)  returns 0x00 (0000ms, 0826ms total)
T4994 001:223 JLINK_WriteReg(R14, 0x20000001)  returns 0x00 (0000ms, 0826ms total)
T4994 001:223 JLINK_WriteReg(R15 (PC), 0x200000F4)  returns 0x00 (0000ms, 0826ms total)
T4994 001:223 JLINK_WriteReg(XPSR, 0x01000000)  returns 0x00 (0000ms, 0826ms total)
T4994 001:223 JLINK_WriteReg(MSP, 0x20001000)  returns 0x00 (0000ms, 0826ms total)
T4994 001:223 JLINK_WriteReg(PSP, 0x20001000)  returns 0x00 (0000ms, 0826ms total)
T4994 001:223 JLINK_WriteReg(CFBP, 0x00000000)  returns 0x00 (0000ms, 0826ms total)
T4994 001:223 JLINK_SetBPEx(Addr = 0x20000000, Type = 0xFFFFFFF2)  returns 0x00000008 (0000ms, 0826ms total)
T4994 001:223 JLINK_Go() -- CPU_ReadMem(4 bytes @ 0xE0001000) (0003ms, 0829ms total)
T4994 001:226 JLINK_IsHalted()  returns FALSE (0000ms, 0829ms total)
T4994 001:248 JLINK_IsHalted()  returns FALSE (0000ms, 0829ms total)
T4994 001:252 JLINK_IsHalted()  returns FALSE (0000ms, 0829ms total)
T4994 001:253 JLINK_IsHalted()  returns FALSE (0000ms, 0829ms total)
T4994 001:254 JLINK_IsHalted()  returns FALSE (0000ms, 0829ms total)
T4994 001:276 JLINK_IsHalted() -- CPU_ReadMem(2 bytes @ 0x20000000)  returns TRUE (0003ms, 0832ms total)
T4994 001:279 JLINK_ReadReg(R15 (PC))  returns 0x20000000 (0000ms, 0829ms total)
T4994 001:279 JLINK_ClrBPEx(BPHandle = 0x00000008)  returns 0x00 (0000ms, 0829ms total)
T4994 001:279 JLINK_ReadReg(R0)  returns 0x00000000 (0000ms, 0829ms total)
T4994 001:279 JLINK_WriteMem(0x20000164, 0x0400 Bytes, ...) - Data: 01 46 00 20 8A 68 02 F4 00 12 0A B1 01 20 00 E0 ... -- CPU_WriteMem(1024 bytes @ 0x20000164)  returns 0x400 (0007ms, 0836ms total)
T4994 001:286 JLINK_WriteReg(R0, 0x08001000)  returns 0x00 (0000ms, 0836ms total)
T4994 001:286 JLINK_WriteReg(R1, 0x00000400)  returns 0x00 (0000ms, 0836ms total)
T4994 001:286 JLINK_WriteReg(R2, 0x20000164)  returns 0x00 (0000ms, 0836ms total)
T4994 001:286 JLINK_WriteReg(R3, 0x00000000)  returns 0x00 (0000ms, 0836ms total)
T4994 001:286 JLINK_WriteReg(R4, 0x00000000)  returns 0x00 (0000ms, 0836ms total)
T4994 001:286 JLINK_WriteReg(R5, 0x00000000)  returns 0x00 (0000ms, 0836ms total)
T4994 001:286 JLINK_WriteReg(R6, 0x00000000)  returns 0x00 (0000ms, 0836ms total)
T4994 001:286 JLINK_WriteReg(R7, 0x00000000)  returns 0x00 (0000ms, 0836ms total)
T4994 001:286 JLINK_WriteReg(R8, 0x00000000)  returns 0x00 (0000ms, 0836ms total)
T4994 001:286 JLINK_WriteReg(R9, 0x20000160)  returns 0x00 (0000ms, 0836ms total)
T4994 001:286 JLINK_WriteReg(R10, 0x00000000)  returns 0x00 (0000ms, 0836ms total)
T4994 001:286 JLINK_WriteReg(R11, 0x00000000)  returns 0x00 (0000ms, 0836ms total)
T4994 001:286 JLINK_WriteReg(R12, 0x00000000)  returns 0x00 (0000ms, 0836ms total)
T4994 001:286 JLINK_WriteReg(R13 (SP), 0x20001000)  returns 0x00 (0000ms, 0836ms total)
T4994 001:286 JLINK_WriteReg(R14, 0x20000001)  returns 0x00 (0000ms, 0836ms total)
T4994 001:286 JLINK_WriteReg(R15 (PC), 0x200000F4)  returns 0x00 (0000ms, 0836ms total)
T4994 001:286 JLINK_WriteReg(XPSR, 0x01000000)  returns 0x00 (0000ms, 0836ms total)
T4994 001:286 JLINK_WriteReg(MSP, 0x20001000)  returns 0x00 (0000ms, 0836ms total)
T4994 001:286 JLINK_WriteReg(PSP, 0x20001000)  returns 0x00 (0000ms, 0836ms total)
T4994 001:286 JLINK_WriteReg(CFBP, 0x00000000)  returns 0x00 (0000ms, 0836ms total)
T4994 001:286 JLINK_SetBPEx(Addr = 0x20000000, Type = 0xFFFFFFF2)  returns 0x00000009 (0000ms, 0836ms total)
T4994 001:286 JLINK_Go() -- CPU_ReadMem(4 bytes @ 0xE0001000) (0003ms, 0839ms total)
T4994 001:289 JLINK_IsHalted()  returns FALSE (0000ms, 0839ms total)
T4994 001:290 JLINK_IsHalted()  returns FALSE (0000ms, 0839ms total)
T4994 001:294 JLINK_IsHalted()  returns FALSE (0000ms, 0839ms total)
T4994 001:295 JLINK_IsHalted()  returns FALSE (0000ms, 0839ms total)
T4994 001:296 JLINK_IsHalted()  returns FALSE (0000ms, 0839ms total)
T4994 001:297 JLINK_IsHalted()  returns FALSE (0000ms, 0839ms total)
T4994 001:298 JLINK_IsHalted()  returns FALSE (0000ms, 0839ms total)
T4994 001:299 JLINK_IsHalted()  returns FALSE (0000ms, 0839ms total)
T4994 001:300 JLINK_IsHalted()  returns FALSE (0000ms, 0839ms total)
T4994 001:301 JLINK_IsHalted()  returns FALSE (0000ms, 0839ms total)
T4994 001:302 JLINK_IsHalted()  returns FALSE (0000ms, 0839ms total)
T4994 001:303 JLINK_IsHalted()  returns FALSE (0000ms, 0839ms total)
T4994 001:304 JLINK_IsHalted()  returns FALSE (0000ms, 0839ms total)
T4994 001:305 JLINK_IsHalted()  returns FALSE (0000ms, 0839ms total)
T4994 001:306 JLINK_IsHalted()  returns FALSE (0000ms, 0839ms total)
T4994 001:307 JLINK_IsHalted()  returns FALSE (0000ms, 0839ms total)
T4994 001:308 JLINK_IsHalted()  returns FALSE (0000ms, 0839ms total)
T4994 001:309 JLINK_IsHalted()  returns FALSE (0000ms, 0839ms total)
T4994 001:310 JLINK_IsHalted()  returns FALSE (0000ms, 0839ms total)
T4994 001:314 JLINK_IsHalted()  returns FALSE (0000ms, 0839ms total)
T4994 001:316 JLINK_IsHalted()  returns FALSE (0000ms, 0839ms total)
T4994 001:318 JLINK_IsHalted()  returns FALSE (0001ms, 0840ms total)
T4994 001:344 JLINK_IsHalted() -- CPU_ReadMem(2 bytes @ 0x20000000)  returns TRUE (0003ms, 0842ms total)
T4994 001:347 JLINK_ReadReg(R15 (PC))  returns 0x20000000 (0000ms, 0839ms total)
T4994 001:347 JLINK_ClrBPEx(BPHandle = 0x00000009)  returns 0x00 (0000ms, 0839ms total)
T4994 001:347 JLINK_ReadReg(R0)  returns 0x00000000 (0000ms, 0839ms total)
T4994 001:348 JLINK_WriteMem(0x20000164, 0x0400 Bytes, ...) - Data: 04 23 FF F7 8A FF 03 46 03 E0 FF F7 86 FF 03 46 ... -- CPU_WriteMem(1024 bytes @ 0x20000164)  returns 0x400 (0007ms, 0846ms total)
T4994 001:355 JLINK_WriteReg(R0, 0x08001400)  returns 0x00 (0000ms, 0846ms total)
T4994 001:355 JLINK_WriteReg(R1, 0x00000400)  returns 0x00 (0000ms, 0846ms total)
T4994 001:355 JLINK_WriteReg(R2, 0x20000164)  returns 0x00 (0000ms, 0846ms total)
T4994 001:355 JLINK_WriteReg(R3, 0x00000000)  returns 0x00 (0000ms, 0846ms total)
T4994 001:355 JLINK_WriteReg(R4, 0x00000000)  returns 0x00 (0000ms, 0846ms total)
T4994 001:355 JLINK_WriteReg(R5, 0x00000000)  returns 0x00 (0000ms, 0846ms total)
T4994 001:355 JLINK_WriteReg(R6, 0x00000000)  returns 0x00 (0000ms, 0846ms total)
T4994 001:355 JLINK_WriteReg(R7, 0x00000000)  returns 0x00 (0000ms, 0846ms total)
T4994 001:355 JLINK_WriteReg(R8, 0x00000000)  returns 0x00 (0000ms, 0846ms total)
T4994 001:355 JLINK_WriteReg(R9, 0x20000160)  returns 0x00 (0000ms, 0846ms total)
T4994 001:355 JLINK_WriteReg(R10, 0x00000000)  returns 0x00 (0000ms, 0846ms total)
T4994 001:355 JLINK_WriteReg(R11, 0x00000000)  returns 0x00 (0000ms, 0846ms total)
T4994 001:355 JLINK_WriteReg(R12, 0x00000000)  returns 0x00 (0000ms, 0846ms total)
T4994 001:355 JLINK_WriteReg(R13 (SP), 0x20001000)  returns 0x00 (0000ms, 0846ms total)
T4994 001:355 JLINK_WriteReg(R14, 0x20000001)  returns 0x00 (0000ms, 0846ms total)
T4994 001:355 JLINK_WriteReg(R15 (PC), 0x200000F4)  returns 0x00 (0000ms, 0846ms total)
T4994 001:355 JLINK_WriteReg(XPSR, 0x01000000)  returns 0x00 (0000ms, 0846ms total)
T4994 001:355 JLINK_WriteReg(MSP, 0x20001000)  returns 0x00 (0000ms, 0846ms total)
T4994 001:355 JLINK_WriteReg(PSP, 0x20001000)  returns 0x00 (0000ms, 0846ms total)
T4994 001:355 JLINK_WriteReg(CFBP, 0x00000000)  returns 0x00 (0000ms, 0846ms total)
T4994 001:355 JLINK_SetBPEx(Addr = 0x20000000, Type = 0xFFFFFFF2)  returns 0x0000000A (0000ms, 0846ms total)
T4994 001:355 JLINK_Go() -- CPU_ReadMem(4 bytes @ 0xE0001000) (0003ms, 0849ms total)
T4994 001:358 JLINK_IsHalted()  returns FALSE (0000ms, 0849ms total)
T4994 001:362 JLINK_IsHalted()  returns FALSE (0001ms, 0850ms total)
T4994 001:364 JLINK_IsHalted()  returns FALSE (0000ms, 0849ms total)
T4994 001:365 JLINK_IsHalted()  returns FALSE (0000ms, 0849ms total)
T4994 001:369 JLINK_IsHalted()  returns FALSE (0000ms, 0849ms total)
T4994 001:370 JLINK_IsHalted()  returns FALSE (0000ms, 0849ms total)
T4994 001:371 JLINK_IsHalted()  returns FALSE (0000ms, 0849ms total)
T4994 001:372 JLINK_IsHalted()  returns FALSE (0000ms, 0849ms total)
T4994 001:373 JLINK_IsHalted()  returns FALSE (0000ms, 0849ms total)
T4994 001:374 JLINK_IsHalted()  returns FALSE (0000ms, 0849ms total)
T4994 001:375 JLINK_IsHalted()  returns FALSE (0000ms, 0849ms total)
T4994 001:376 JLINK_IsHalted()  returns FALSE (0000ms, 0849ms total)
T4994 001:377 JLINK_IsHalted()  returns FALSE (0000ms, 0849ms total)
T4994 001:378 JLINK_IsHalted()  returns FALSE (0000ms, 0849ms total)
T4994 001:379 JLINK_IsHalted()  returns FALSE (0000ms, 0849ms total)
T4994 001:380 JLINK_IsHalted()  returns FALSE (0000ms, 0849ms total)
T4994 001:406 JLINK_IsHalted() -- CPU_ReadMem(2 bytes @ 0x20000000)  returns TRUE (0002ms, 0851ms total)
T4994 001:408 JLINK_ReadReg(R15 (PC))  returns 0x20000000 (0000ms, 0849ms total)
T4994 001:408 JLINK_ClrBPEx(BPHandle = 0x0000000A)  returns 0x00 (0000ms, 0849ms total)
T4994 001:408 JLINK_ReadReg(R0)  returns 0x00000000 (0000ms, 0849ms total)
T4994 001:409 JLINK_WriteMem(0x20000164, 0x0400 Bytes, ...) - Data: 01 02 0A B1 01 20 08 E0 00 20 06 E0 11 4A D2 68 ... -- CPU_WriteMem(1024 bytes @ 0x20000164)  returns 0x400 (0006ms, 0855ms total)
T4994 001:415 JLINK_WriteReg(R0, 0x08001800)  returns 0x00 (0000ms, 0855ms total)
T4994 001:415 JLINK_WriteReg(R1, 0x00000400)  returns 0x00 (0000ms, 0855ms total)
T4994 001:415 JLINK_WriteReg(R2, 0x20000164)  returns 0x00 (0000ms, 0855ms total)
T4994 001:415 JLINK_WriteReg(R3, 0x00000000)  returns 0x00 (0000ms, 0855ms total)
T4994 001:415 JLINK_WriteReg(R4, 0x00000000)  returns 0x00 (0000ms, 0855ms total)
T4994 001:415 JLINK_WriteReg(R5, 0x00000000)  returns 0x00 (0000ms, 0855ms total)
T4994 001:415 JLINK_WriteReg(R6, 0x00000000)  returns 0x00 (0000ms, 0855ms total)
T4994 001:415 JLINK_WriteReg(R7, 0x00000000)  returns 0x00 (0000ms, 0855ms total)
T4994 001:415 JLINK_WriteReg(R8, 0x00000000)  returns 0x00 (0000ms, 0855ms total)
T4994 001:415 JLINK_WriteReg(R9, 0x20000160)  returns 0x00 (0000ms, 0855ms total)
T4994 001:415 JLINK_WriteReg(R10, 0x00000000)  returns 0x00 (0000ms, 0855ms total)
T4994 001:415 JLINK_WriteReg(R11, 0x00000000)  returns 0x00 (0000ms, 0855ms total)
T4994 001:415 JLINK_WriteReg(R12, 0x00000000)  returns 0x00 (0000ms, 0855ms total)
T4994 001:415 JLINK_WriteReg(R13 (SP), 0x20001000)  returns 0x00 (0000ms, 0855ms total)
T4994 001:415 JLINK_WriteReg(R14, 0x20000001)  returns 0x00 (0000ms, 0855ms total)
T4994 001:415 JLINK_WriteReg(R15 (PC), 0x200000F4)  returns 0x00 (0000ms, 0855ms total)
T4994 001:415 JLINK_WriteReg(XPSR, 0x01000000)  returns 0x00 (0000ms, 0855ms total)
T4994 001:415 JLINK_WriteReg(MSP, 0x20001000)  returns 0x00 (0000ms, 0855ms total)
T4994 001:415 JLINK_WriteReg(PSP, 0x20001000)  returns 0x00 (0000ms, 0855ms total)
T4994 001:415 JLINK_WriteReg(CFBP, 0x00000000)  returns 0x00 (0000ms, 0855ms total)
T4994 001:415 JLINK_SetBPEx(Addr = 0x20000000, Type = 0xFFFFFFF2)  returns 0x0000000B (0000ms, 0855ms total)
T4994 001:415 JLINK_Go() -- CPU_ReadMem(4 bytes @ 0xE0001000) (0003ms, 0858ms total)
T4994 001:418 JLINK_IsHalted()  returns FALSE (0000ms, 0858ms total)
T4994 001:422 JLINK_IsHalted()  returns FALSE (0000ms, 0858ms total)
T4994 001:423 JLINK_IsHalted()  returns FALSE (0000ms, 0858ms total)
T4994 001:424 JLINK_IsHalted()  returns FALSE (0000ms, 0858ms total)
T4994 001:425 JLINK_IsHalted()  returns FALSE (0000ms, 0858ms total)
T4994 001:426 JLINK_IsHalted()  returns FALSE (0000ms, 0858ms total)
T4994 001:427 JLINK_IsHalted()  returns FALSE (0000ms, 0858ms total)
T4994 001:428 JLINK_IsHalted()  returns FALSE (0000ms, 0858ms total)
T4994 001:429 JLINK_IsHalted()  returns FALSE (0000ms, 0858ms total)
T4994 001:430 JLINK_IsHalted()  returns FALSE (0000ms, 0858ms total)
T4994 001:431 JLINK_IsHalted()  returns FALSE (0000ms, 0858ms total)
T4994 001:432 JLINK_IsHalted()  returns FALSE (0000ms, 0858ms total)
T4994 001:433 JLINK_IsHalted()  returns FALSE (0000ms, 0858ms total)
T4994 001:434 JLINK_IsHalted()  returns FALSE (0000ms, 0858ms total)
T4994 001:435 JLINK_IsHalted()  returns FALSE (0000ms, 0858ms total)
T4994 001:439 JLINK_IsHalted()  returns FALSE (0000ms, 0858ms total)
T4994 001:441 JLINK_IsHalted()  returns FALSE (0000ms, 0858ms total)
T4994 001:443 JLINK_IsHalted()  returns FALSE (0000ms, 0858ms total)
T4994 001:444 JLINK_IsHalted()  returns FALSE (0000ms, 0858ms total)
T4994 001:465 JLINK_IsHalted() -- CPU_ReadMem(2 bytes @ 0x20000000)  returns TRUE (0003ms, 0861ms total)
T4994 001:468 JLINK_ReadReg(R15 (PC))  returns 0x20000000 (0000ms, 0858ms total)
T4994 001:468 JLINK_ClrBPEx(BPHandle = 0x0000000B)  returns 0x00 (0000ms, 0858ms total)
T4994 001:468 JLINK_ReadReg(R0)  returns 0x00000000 (0000ms, 0858ms total)
T4994 001:468 JLINK_WriteMem(0x20000164, 0x0400 Bytes, ...) - Data: 00 20 20 4B 18 68 20 F0 03 00 10 43 18 60 1E 4B ... -- CPU_WriteMem(1024 bytes @ 0x20000164)  returns 0x400 (0007ms, 0865ms total)
T4994 001:475 JLINK_WriteReg(R0, 0x08001C00)  returns 0x00 (0000ms, 0865ms total)
T4994 001:475 JLINK_WriteReg(R1, 0x00000400)  returns 0x00 (0000ms, 0865ms total)
T4994 001:475 JLINK_WriteReg(R2, 0x20000164)  returns 0x00 (0000ms, 0865ms total)
T4994 001:475 JLINK_WriteReg(R3, 0x00000000)  returns 0x00 (0000ms, 0865ms total)
T4994 001:475 JLINK_WriteReg(R4, 0x00000000)  returns 0x00 (0000ms, 0865ms total)
T4994 001:475 JLINK_WriteReg(R5, 0x00000000)  returns 0x00 (0000ms, 0865ms total)
T4994 001:475 JLINK_WriteReg(R6, 0x00000000)  returns 0x00 (0000ms, 0865ms total)
T4994 001:475 JLINK_WriteReg(R7, 0x00000000)  returns 0x00 (0000ms, 0865ms total)
T4994 001:475 JLINK_WriteReg(R8, 0x00000000)  returns 0x00 (0000ms, 0865ms total)
T4994 001:475 JLINK_WriteReg(R9, 0x20000160)  returns 0x00 (0000ms, 0865ms total)
T4994 001:475 JLINK_WriteReg(R10, 0x00000000)  returns 0x00 (0000ms, 0865ms total)
T4994 001:475 JLINK_WriteReg(R11, 0x00000000)  returns 0x00 (0000ms, 0865ms total)
T4994 001:475 JLINK_WriteReg(R12, 0x00000000)  returns 0x00 (0000ms, 0865ms total)
T4994 001:475 JLINK_WriteReg(R13 (SP), 0x20001000)  returns 0x00 (0000ms, 0865ms total)
T4994 001:475 JLINK_WriteReg(R14, 0x20000001)  returns 0x00 (0000ms, 0865ms total)
T4994 001:475 JLINK_WriteReg(R15 (PC), 0x200000F4)  returns 0x00 (0000ms, 0865ms total)
T4994 001:475 JLINK_WriteReg(XPSR, 0x01000000)  returns 0x00 (0000ms, 0865ms total)
T4994 001:475 JLINK_WriteReg(MSP, 0x20001000)  returns 0x00 (0000ms, 0865ms total)
T4994 001:475 JLINK_WriteReg(PSP, 0x20001000)  returns 0x00 (0000ms, 0865ms total)
T4994 001:475 JLINK_WriteReg(CFBP, 0x00000000)  returns 0x00 (0000ms, 0865ms total)
T4994 001:475 JLINK_SetBPEx(Addr = 0x20000000, Type = 0xFFFFFFF2)  returns 0x0000000C (0000ms, 0865ms total)
T4994 001:475 JLINK_Go() -- CPU_ReadMem(4 bytes @ 0xE0001000) (0003ms, 0868ms total)
T4994 001:478 JLINK_IsHalted()  returns FALSE (0000ms, 0868ms total)
T4994 001:482 JLINK_IsHalted()  returns FALSE (0000ms, 0868ms total)
T4994 001:483 JLINK_IsHalted()  returns FALSE (0000ms, 0868ms total)
T4994 001:484 JLINK_IsHalted()  returns FALSE (0000ms, 0868ms total)
T4994 001:485 JLINK_IsHalted()  returns FALSE (0000ms, 0868ms total)
T4994 001:486 JLINK_IsHalted()  returns FALSE (0000ms, 0868ms total)
T4994 001:487 JLINK_IsHalted()  returns FALSE (0000ms, 0868ms total)
T4994 001:488 JLINK_IsHalted()  returns FALSE (0000ms, 0868ms total)
T4994 001:492 JLINK_IsHalted()  returns FALSE (0000ms, 0868ms total)
T4994 001:494 JLINK_IsHalted()  returns FALSE (0000ms, 0868ms total)
T4994 001:495 JLINK_IsHalted()  returns FALSE (0000ms, 0868ms total)
T4994 001:496 JLINK_IsHalted()  returns FALSE (0000ms, 0868ms total)
T4994 001:497 JLINK_IsHalted()  returns FALSE (0000ms, 0868ms total)
T4994 001:498 JLINK_IsHalted()  returns FALSE (0000ms, 0868ms total)
T4994 001:499 JLINK_IsHalted()  returns FALSE (0000ms, 0868ms total)
T4994 001:500 JLINK_IsHalted()  returns FALSE (0000ms, 0868ms total)
T4994 001:501 JLINK_IsHalted()  returns FALSE (0000ms, 0868ms total)
T4994 001:502 JLINK_IsHalted()  returns FALSE (0000ms, 0868ms total)
T4994 001:503 JLINK_IsHalted()  returns FALSE (0000ms, 0868ms total)
T4994 001:504 JLINK_IsHalted()  returns FALSE (0000ms, 0868ms total)
T4994 001:522 JLINK_IsHalted() -- CPU_ReadMem(2 bytes @ 0x20000000)  returns TRUE (0003ms, 0871ms total)
T4994 001:525 JLINK_ReadReg(R15 (PC))  returns 0x20000000 (0000ms, 0868ms total)
T4994 001:525 JLINK_ClrBPEx(BPHandle = 0x0000000C)  returns 0x00 (0000ms, 0868ms total)
T4994 001:525 JLINK_ReadReg(R0)  returns 0x00000000 (0000ms, 0868ms total)
T4994 001:525 JLINK_WriteMem(0x20000164, 0x0400 Bytes, ...) - Data: 00 E0 00 20 70 47 01 49 88 72 70 47 00 10 02 40 ... -- CPU_WriteMem(1024 bytes @ 0x20000164)  returns 0x400 (0006ms, 0874ms total)
T4994 001:531 JLINK_WriteReg(R0, 0x08002000)  returns 0x00 (0000ms, 0874ms total)
T4994 001:531 JLINK_WriteReg(R1, 0x00000400)  returns 0x00 (0000ms, 0874ms total)
T4994 001:531 JLINK_WriteReg(R2, 0x20000164)  returns 0x00 (0000ms, 0874ms total)
T4994 001:531 JLINK_WriteReg(R3, 0x00000000)  returns 0x00 (0000ms, 0874ms total)
T4994 001:531 JLINK_WriteReg(R4, 0x00000000)  returns 0x00 (0000ms, 0874ms total)
T4994 001:531 JLINK_WriteReg(R5, 0x00000000)  returns 0x00 (0001ms, 0875ms total)
T4994 001:532 JLINK_WriteReg(R6, 0x00000000)  returns 0x00 (0000ms, 0875ms total)
T4994 001:532 JLINK_WriteReg(R7, 0x00000000)  returns 0x00 (0000ms, 0875ms total)
T4994 001:532 JLINK_WriteReg(R8, 0x00000000)  returns 0x00 (0000ms, 0875ms total)
T4994 001:532 JLINK_WriteReg(R9, 0x20000160)  returns 0x00 (0000ms, 0875ms total)
T4994 001:532 JLINK_WriteReg(R10, 0x00000000)  returns 0x00 (0000ms, 0875ms total)
T4994 001:532 JLINK_WriteReg(R11, 0x00000000)  returns 0x00 (0000ms, 0875ms total)
T4994 001:532 JLINK_WriteReg(R12, 0x00000000)  returns 0x00 (0000ms, 0875ms total)
T4994 001:532 JLINK_WriteReg(R13 (SP), 0x20001000)  returns 0x00 (0000ms, 0875ms total)
T4994 001:532 JLINK_WriteReg(R14, 0x20000001)  returns 0x00 (0000ms, 0875ms total)
T4994 001:532 JLINK_WriteReg(R15 (PC), 0x200000F4)  returns 0x00 (0000ms, 0875ms total)
T4994 001:532 JLINK_WriteReg(XPSR, 0x01000000)  returns 0x00 (0000ms, 0875ms total)
T4994 001:532 JLINK_WriteReg(MSP, 0x20001000)  returns 0x00 (0000ms, 0875ms total)
T4994 001:532 JLINK_WriteReg(PSP, 0x20001000)  returns 0x00 (0000ms, 0875ms total)
T4994 001:532 JLINK_WriteReg(CFBP, 0x00000000)  returns 0x00 (0000ms, 0875ms total)
T4994 001:532 JLINK_SetBPEx(Addr = 0x20000000, Type = 0xFFFFFFF2)  returns 0x0000000D (0000ms, 0875ms total)
T4994 001:532 JLINK_Go() -- CPU_ReadMem(4 bytes @ 0xE0001000) (0003ms, 0878ms total)
T4994 001:535 JLINK_IsHalted()  returns FALSE (0000ms, 0878ms total)
T4994 001:539 JLINK_IsHalted()  returns FALSE (0000ms, 0878ms total)
T4994 001:540 JLINK_IsHalted()  returns FALSE (0000ms, 0878ms total)
T4994 001:541 JLINK_IsHalted()  returns FALSE (0000ms, 0878ms total)
T4994 001:542 JLINK_IsHalted()  returns FALSE (0000ms, 0878ms total)
T4994 001:546 JLINK_IsHalted()  returns FALSE (0000ms, 0878ms total)
T4994 001:547 JLINK_IsHalted()  returns FALSE (0000ms, 0878ms total)
T4994 001:548 JLINK_IsHalted()  returns FALSE (0000ms, 0878ms total)
T4994 001:549 JLINK_IsHalted()  returns FALSE (0000ms, 0878ms total)
T4994 001:550 JLINK_IsHalted()  returns FALSE (0000ms, 0878ms total)
T4994 001:551 JLINK_IsHalted()  returns FALSE (0000ms, 0878ms total)
T4994 001:552 JLINK_IsHalted()  returns FALSE (0000ms, 0878ms total)
T4994 001:553 JLINK_IsHalted()  returns FALSE (0000ms, 0878ms total)
T4994 001:554 JLINK_IsHalted()  returns FALSE (0000ms, 0878ms total)
T4994 001:555 JLINK_IsHalted()  returns FALSE (0000ms, 0878ms total)
T4994 001:556 JLINK_IsHalted()  returns FALSE (0000ms, 0878ms total)
T4994 001:574 JLINK_IsHalted() -- CPU_ReadMem(2 bytes @ 0x20000000)  returns TRUE (0003ms, 0881ms total)
T4994 001:577 JLINK_ReadReg(R15 (PC))  returns 0x20000000 (0000ms, 0878ms total)
T4994 001:577 JLINK_ClrBPEx(BPHandle = 0x0000000D)  returns 0x00 (0000ms, 0878ms total)
T4994 001:577 JLINK_ReadReg(R0)  returns 0x00000000 (0000ms, 0878ms total)
T4994 001:577 JLINK_WriteMem(0x20000164, 0x0400 Bytes, ...) - Data: 85 87 02 84 70 BD 70 B5 00 22 00 23 00 24 05 8C ... -- CPU_WriteMem(1024 bytes @ 0x20000164)  returns 0x400 (0006ms, 0884ms total)
T4994 001:584 JLINK_WriteReg(R0, 0x08002400)  returns 0x00 (0000ms, 0884ms total)
T4994 001:584 JLINK_WriteReg(R1, 0x00000400)  returns 0x00 (0000ms, 0884ms total)
T4994 001:584 JLINK_WriteReg(R2, 0x20000164)  returns 0x00 (0000ms, 0884ms total)
T4994 001:584 JLINK_WriteReg(R3, 0x00000000)  returns 0x00 (0000ms, 0884ms total)
T4994 001:584 JLINK_WriteReg(R4, 0x00000000)  returns 0x00 (0000ms, 0884ms total)
T4994 001:584 JLINK_WriteReg(R5, 0x00000000)  returns 0x00 (0000ms, 0884ms total)
T4994 001:584 JLINK_WriteReg(R6, 0x00000000)  returns 0x00 (0000ms, 0884ms total)
T4994 001:584 JLINK_WriteReg(R7, 0x00000000)  returns 0x00 (0000ms, 0884ms total)
T4994 001:584 JLINK_WriteReg(R8, 0x00000000)  returns 0x00 (0000ms, 0884ms total)
T4994 001:584 JLINK_WriteReg(R9, 0x20000160)  returns 0x00 (0000ms, 0884ms total)
T4994 001:584 JLINK_WriteReg(R10, 0x00000000)  returns 0x00 (0000ms, 0884ms total)
T4994 001:584 JLINK_WriteReg(R11, 0x00000000)  returns 0x00 (0000ms, 0884ms total)
T4994 001:584 JLINK_WriteReg(R12, 0x00000000)  returns 0x00 (0000ms, 0884ms total)
T4994 001:584 JLINK_WriteReg(R13 (SP), 0x20001000)  returns 0x00 (0000ms, 0884ms total)
T4994 001:584 JLINK_WriteReg(R14, 0x20000001)  returns 0x00 (0000ms, 0884ms total)
T4994 001:584 JLINK_WriteReg(R15 (PC), 0x200000F4)  returns 0x00 (0000ms, 0884ms total)
T4994 001:584 JLINK_WriteReg(XPSR, 0x01000000)  returns 0x00 (0000ms, 0884ms total)
T4994 001:584 JLINK_WriteReg(MSP, 0x20001000)  returns 0x00 (0000ms, 0884ms total)
